Freq.	V(vout+)-V(vout-)
1.00000000000000e-003	(-3.19974242901187e+001dB,-9.12957827184008e+001°)
1.02329299228075e-003	(-3.17975289561310e+001dB,-9.13259547225602e+001°)
1.04712854805090e-003	(-3.15976385521970e+001dB,-9.13568287614440e+001°)
1.07151930523761e-003	(-3.13977533104022e+001dB,-9.13884211331182e+001°)
1.09647819614318e-003	(-3.11978734737450e+001dB,-9.14207485113924e+001°)
1.12201845430196e-003	(-3.09979992966483e+001dB,-9.14538279542944e+001°)
1.14815362149688e-003	(-3.07981310454954e+001dB,-9.14876769127226e+001°)
1.17489755493953e-003	(-3.05982689991907e+001dB,-9.15223132392789e+001°)
1.20226443461741e-003	(-3.03984134497468e+001dB,-9.15577551972845e+001°)
1.23026877081238e-003	(-3.01985647028985e+001dB,-9.15940214699813e+001°)
1.25892541179417e-003	(-2.99987230787459e+001dB,-9.16311311699223e+001°)
1.28824955169313e-003	(-2.97988889124269e+001dB,-9.16691038485519e+001°)
1.31825673855641e-003	(-2.95990625548218e+001dB,-9.17079595059802e+001°)
1.34896288259165e-003	(-2.93992443732899e+001dB,-9.17477186009529e+001°)
1.38038426460288e-003	(-2.91994347524402e+001dB,-9.17884020610189e+001°)
1.41253754462275e-003	(-2.89996340949391e+001dB,-9.18300312928988e+001°)
1.44543977074593e-003	(-2.87998428223541e+001dB,-9.18726281930548e+001°)
1.47910838816821e-003	(-2.86000613760377e+001dB,-9.19162151584654e+001°)
1.51356124843621e-003	(-2.84002902180515e+001dB,-9.19608150976061e+001°)
1.54881661891248e-003	(-2.82005298321336e+001dB,-9.20064514416375e+001°)
1.58489319246111e-003	(-2.80007807247108e+001dB,-9.20531481558021e+001°)
1.62181009735893e-003	(-2.78010434259570e+001dB,-9.21009297510325e+001°)
1.65958690743756e-003	(-2.76013184909009e+001dB,-9.21498212957696e+001°)
1.69824365246174e-003	(-2.74016065005851e+001dB,-9.21998484279934e+001°)
1.73780082874937e-003	(-2.72019080632776e+001dB,-9.22510373674667e+001°)
1.77827941003892e-003	(-2.70022238157403e+001dB,-9.23034149281904e+001°)
1.81970085860998e-003	(-2.68025544245549e+001dB,-9.23570085310727e+001°)
1.86208713666287e-003	(-2.66029005875102e+001dB,-9.24118462168091e+001°)
1.90546071796324e-003	(-2.64032630350526e+001dB,-9.24679566589742e+001°)
1.94984459975804e-003	(-2.62036425318035e+001dB,-9.25253691773229e+001°)
1.99526231496888e-003	(-2.60040398781462e+001dB,-9.25841137513001e+001°)
2.04173794466953e-003	(-2.58044559118842e+001dB,-9.26442210337557e+001°)
2.08929613085404e-003	(-2.56048915099767e+001dB,-9.27057223648625e+001°)
2.13796208950223e-003	(-2.54053475903519e+001dB,-9.27686497862334e+001°)
2.18776162394955e-003	(-2.52058251138036e+001dB,-9.28330360552346e+001°)
2.23872113856834e-003	(-2.50063250859731e+001dB,-9.28989146594882e+001°)
2.29086765276777e-003	(-2.48068485594211e+001dB,-9.29663198315614e+001°)
2.34422881531992e-003	(-2.46073966357941e+001dB,-9.30352865638325e+001°)
2.39883291901949e-003	(-2.44079704680873e+001dB,-9.31058506235304e+001°)
2.45470891568503e-003	(-2.42085712630098e+001dB,-9.31780485679358e+001°)
2.51188643150958e-003	(-2.40092002834567e+001dB,-9.32519177597376e+001°)
2.57039578276886e-003	(-2.38098588510913e+001dB,-9.33274963825325e+001°)
2.63026799189538e-003	(-2.36105483490426e+001dB,-9.34048234564582e+001°)
2.69153480392691e-003	(-2.34112702247237e+001dB,-9.34839388539446e+001°)
2.75422870333816e-003	(-2.32120259927753e+001dB,-9.35648833155723e+001°)
2.81838293126445e-003	(-2.30128172381393e+001dB,-9.36476984660208e+001°)
2.88403150312660e-003	(-2.28136456192686e+001dB,-9.37324268300891e+001°)
2.95120922666638e-003	(-2.26145128714788e+001dB,-9.38191118487719e+001°)
3.01995172040201e-003	(-2.24154208104460e+001dB,-9.39077978953684e+001°)
3.09029543251358e-003	(-2.22163713358586e+001dB,-9.39985302916029e+001°)
3.16227766016837e-003	(-2.20173664352281e+001dB,-9.40913553237325e+001°)
3.23593656929628e-003	(-2.18184081878648e+001dB,-9.41863202586143e+001°)
3.31131121482590e-003	(-2.16194987690265e+001dB,-9.42834733597034e+001°)
3.38844156139202e-003	(-2.14206404542448e+001dB,-9.43828639029512e+001°)
3.46736850452531e-003	(-2.12218356238373e+001dB,-9.44845421925674e+001°)
3.54813389233575e-003	(-2.10230867676124e+001dB,-9.45885595766116e+001°)
3.63078054770101e-003	(-2.08243964897735e+001dB,-9.46949684623709e+001°)
3.71535229097172e-003	(-2.06257675140302e+001dB,-9.48038223314835e+001°)
3.80189396320560e-003	(-2.04272026889240e+001dB,-9.49151757547589e+001°)
3.89045144994280e-003	(-2.02287049933761e+001dB,-9.50290844066456e+001°)
3.98107170553496e-003	(-2.00302775424652e+001dB,-9.51456050792916e+001°)
4.07380277804112e-003	(-1.98319235934433e+001dB,-9.52647956961385e+001°)
4.16869383470334e-003	(-1.96336465519969e+001dB,-9.53867153249879e+001°)
4.26579518801592e-003	(-1.94354499787621e+001dB,-9.55114241904706e+001°)
4.36515832240165e-003	(-1.92373375961030e+001dB,-9.56389836858483e+001°)
4.46683592150962e-003	(-1.90393132951586e+001dB,-9.57694563840681e+001°)
4.57088189614874e-003	(-1.88413811431698e+001dB,-9.59029060479885e+001°)
4.67735141287197e-003	(-1.86435453910926e+001dB,-9.60393976396870e+001°)
4.78630092322637e-003	(-1.84458104815060e+001dB,-9.61789973287550e+001°)
4.89778819368445e-003	(-1.82481810568238e+001dB,-9.63217724994778e+001°)
5.01187233627271e-003	(-1.80506619678165e+001dB,-9.64677917567928e+001°)
5.12861383991363e-003	(-1.78532582824526e+001dB,-9.66171249309095e+001°)
5.24807460249771e-003	(-1.76559752950661e+001dB,-9.67698430804699e+001°)
5.37031796370251e-003	(-1.74588185358576e+001dB,-9.69260184941176e+001°)
5.49540873857623e-003	(-1.72617937807358e+001dB,-9.70857246903387e+001°)
5.62341325190347e-003	(-1.70649070615059e+001dB,-9.72490364154259e+001°)
5.75439937337155e-003	(-1.68681646764115e+001dB,-9.74160296394115e+001°)
5.88843655355587e-003	(-1.66715732010335e+001dB,-9.75867815498028e+001°)
6.02559586074356e-003	(-1.64751394995534e+001dB,-9.77613705429473e+001°)
6.16595001861480e-003	(-1.62788707363820e+001dB,-9.79398762128410e+001°)
6.30957344480191e-003	(-1.60827743881588e+001dB,-9.81223793371879e+001°)
6.45654229034654e-003	(-1.58868582561222e+001dB,-9.83089618605033e+001°)
6.60693448007594e-003	(-1.56911304788520e+001dB,-9.84997068740471e+001°)
6.76082975391980e-003	(-1.54955995453844e+001dB,-9.86946985923591e+001°)
6.91830970918934e-003	(-1.53002743086953e+001dB,-9.88940223261590e+001°)
7.07945784384136e-003	(-1.51051639995500e+001dB,-9.90977644513623e+001°)
7.24435960074988e-003	(-1.49102782407135e+001dB,-9.93060123739499e+001°)
7.41310241300915e-003	(-1.47156270615124e+001dB,-9.95188544904216e+001°)
7.58577575029181e-003	(-1.45212209127400e+001dB,-9.97363801435472e+001°)
7.76247116628689e-003	(-1.43270706818925e+001dB,-9.99586795731221e+001°)
7.94328234724279e-003	(-1.41331877087191e+001dB,-1.00185843861421e+002°)
8.12830516164097e-003	(-1.39395838010712e+001dB,-1.00417964873030e+002°)
8.31763771102668e-003	(-1.37462712510264e+001dB,-1.00655135188737e+002°)
8.51138038202373e-003	(-1.35532628512655e+001dB,-1.00897448033130e+002°)
8.70963589956078e-003	(-1.33605719116718e+001dB,-1.01144997195571e+002°)
8.91250938133742e-003	(-1.31682122761216e+001dB,-1.01397876944185e+002°)
9.12010839355906e-003	(-1.29761983394284e+001dB,-1.01656181932494e+002°)
9.33254300796988e-003	(-1.27845450643999e+001dB,-1.01920007098344e+002°)
9.54992586021432e-003	(-1.25932679989600e+001dB,-1.02189447554740e+002°)
9.77237220955807e-003	(-1.24023832932855e+001dB,-1.02464598472219e+002°)
9.99999999999996e-003	(-1.22119077168976e+001dB,-1.02745554952390e+002°)
1.02329299228075e-002	(-1.20218586756472e+001dB,-1.03032411892253e+002°)
1.04712854805090e-002	(-1.18322542285212e+001dB,-1.03325263838944e+002°)
1.07151930523760e-002	(-1.16431131041948e+001dB,-1.03624204834538e+002°)
1.09647819614318e-002	(-1.14544547172452e+001dB,-1.03929328250549e+002°)
1.12201845430196e-002	(-1.12662991839348e+001dB,-1.04240726611810e+002°)
1.14815362149688e-002	(-1.10786673374671e+001dB,-1.04558491409390e+002°)
1.17489755493952e-002	(-1.08915807426055e+001dB,-1.04882712902273e+002°)
1.20226443461741e-002	(-1.07050617095436e+001dB,-1.05213479907522e+002°)
1.23026877081238e-002	(-1.05191333069002e+001dB,-1.05550879578685e+002°)
1.25892541179416e-002	(-1.03338193737112e+001dB,-1.05894997172266e+002°)
1.28824955169313e-002	(-1.01491445302755e+001dB,-1.06245915802090e+002°)
1.31825673855640e-002	(-9.96513418770748e+000dB,-1.06603716181481e+002°)
1.34896288259165e-002	(-9.78181455604082e+000dB,-1.06968476353192e+002°)
1.38038426460288e-002	(-9.59921265071608e+000dB,-1.07340271407137e+002°)
1.41253754462275e-002	(-9.41735629728170e+000dB,-1.07719173186001e+002°)
1.44543977074592e-002	(-9.23627413412731e+000dB,-1.08105249978929e+002°)
1.47910838816820e-002	(-9.05599561306290e+000dB,-1.08498566203552e+002°)
1.51356124843620e-002	(-8.87655099755070e+000dB,-1.08899182076734e+002°)
1.54881661891247e-002	(-8.69797135839186e+000dB,-1.09307153274509e+002°)
1.58489319246111e-002	(-8.52028856666547e+000dB,-1.09722530581806e+002°)
1.62181009735892e-002	(-8.34353528371472e+000dB,-1.10145359532689e+002°)
1.65958690743755e-002	(-8.16774494797349e+000dB,-1.10575680041950e+002°)
1.69824365246174e-002	(-7.99295175842666e+000dB,-1.11013526029067e+002°)
1.73780082874937e-002	(-7.81919065449959e+000dB,-1.11458925035652e+002°)
1.77827941003891e-002	(-7.64649729217600e+000dB,-1.11911897837697e+002°)
1.81970085860997e-002	(-7.47490801615001e+000dB,-1.12372458054066e+002°)
1.86208713666286e-002	(-7.30445982782681e+000dB,-1.12840611752860e+002°)
1.90546071796324e-002	(-7.13519034899761e+000dB,-1.13316357057430e+002°)
1.94984459975804e-002	(-6.96713778102935e+000dB,-1.13799683754014e+002°)
1.99526231496887e-002	(-6.80034085942669e+000dB,-1.14290572903096e+002°)
2.04173794466952e-002	(-6.63483880364416e+000dB,-1.14788996456792e+002°)
2.08929613085403e-002	(-6.47067126205099e+000dB,-1.15294916884699e+002°)
2.13796208950222e-002	(-6.30787825197744e+000dB,-1.15808286810809e+002°)
2.18776162394954e-002	(-6.14650009480294e+000dB,-1.16329048664227e+002°)
2.23872113856833e-002	(-5.98657734608006e+000dB,-1.16857134346546e+002°)
2.29086765276776e-002	(-5.82815072072585e+000dB,-1.17392464918871e+002°)
2.34422881531991e-002	(-5.67126101335284e+000dB,-1.17934950311530e+002°)
2.39883291901948e-002	(-5.51594901385570e+000dB,-1.18484489059632e+002°)
2.45470891568502e-002	(-5.36225541841571e+000dB,-1.19040968067602e+002°)
2.51188643150957e-002	(-5.21022073613424e+000dB,-1.19604262405906e+002°)
2.57039578276885e-002	(-5.05988519155706e+000dB,-1.20174235143086e+002°)
2.63026799189537e-002	(-4.91128862340309e+000dB,-1.20750737216214e+002°)
2.69153480392690e-002	(-4.76447037986468e+000dB,-1.21333607342747e+002°)
2.75422870333815e-002	(-4.61946921089896e+000dB,-1.21922671976638e+002°)
2.81838293126444e-002	(-4.47632315798258e+000dB,-1.22517745311371e+002°)
2.88403150312659e-002	(-4.33506944185311e+000dB,-1.23118629332359e+002°)
2.95120922666637e-002	(-4.19574434880891e+000dB,-1.23725113920887e+002°)
3.01995172040200e-002	(-4.05838311618526e+000dB,-1.24336977011454e+002°)
3.09029543251357e-002	(-3.92301981766566e+000dB,-1.24953984804031e+002°)
3.16227766016836e-002	(-3.78968724912402e+000dB,-1.25575892032345e+002°)
3.23593656929626e-002	(-3.65841681572416e+000dB,-1.26202442288890e+002°)
3.31131121482589e-002	(-3.52923842102693e+000dB,-1.26833368406869e+002°)
3.38844156139201e-002	(-3.40218035887200e+000dB,-1.27468392898833e+002°)
3.46736850452530e-002	(-3.27726920880960e+000dB,-1.28107228451221e+002°)
3.54813389233573e-002	(-3.15452973585738e+000dB,-1.28749578473523e+002°)
3.63078054770099e-002	(-3.03398479534775e+000dB,-1.29395137700230e+002°)
3.71535229097170e-002	(-2.91565524361251e+000dB,-1.30043592843205e+002°)
3.80189396320559e-002	(-2.79955985522258e+000dB,-1.30694623291596e+002°)
3.89045144994278e-002	(-2.68571524746287e+000dB,-1.31347901855900e+002°)
3.98107170553495e-002	(-2.57413581267478e+000dB,-1.32003095552283e+002°)
4.07380277804110e-002	(-2.46483365904241e+000dB,-1.32659866422855e+002°)
4.16869383470333e-002	(-2.35781856033417e+000dB,-1.33317872387139e+002°)
4.26579518801590e-002	(-2.25309791503931e+000dB,-1.33976768119652e+002°)
4.36515832240163e-002	(-2.15067671526018e+000dB,-1.34636205948190e+002°)
4.46683592150960e-002	(-2.05055752563717e+000dB,-1.35295836767179e+002°)
4.57088189614872e-002	(-1.95274047249499e+000dB,-1.35955310960247e+002°)
4.67735141287195e-002	(-1.85722324330747e+000dB,-1.36614279326106e+002°)
4.78630092322635e-002	(-1.76400109648610e+000dB,-1.37272394001746e+002°)
4.89778819368443e-002	(-1.67306688140400e+000dB,-1.37929309377010e+002°)
5.01187233627269e-002	(-1.58441106847634e+000dB,-1.38584682994708e+002°)
5.12861383991362e-002	(-1.49802178902915e+000dB,-1.39238176430591e+002°)
5.24807460249769e-002	(-1.41388488460415e+000dB,-1.39889456147776e+002°)
5.37031796370249e-002	(-1.33198396526794e+000dB,-1.40538194320468e+002°)
5.49540873857621e-002	(-1.25230047642098e+000dB,-1.41184069622215e+002°)
5.62341325190346e-002	(-1.17481377353669e+000dB,-1.41826767974327e+002°)
5.75439937337153e-002	(-1.09950120420342e+000dB,-1.42465983250528e+002°)
5.88843655355585e-002	(-1.02633819679395e+000dB,-1.43101417934390e+002°)
6.02559586074354e-002	(-9.55298355048016e-001dB,-1.43732783726624e+002°)
6.16595001861478e-002	(-8.86353557823709e-001dB,-1.44359802099803e+002°)
6.30957344480189e-002	(-8.19474063253833e-001dB,-1.44982204798625e+002°)
6.45654229034651e-002	(-7.54628616532660e-001dB,-1.45599734284387e+002°)
6.60693448007592e-002	(-6.91784560557284e-001dB,-1.46212144122818e+002°)
6.76082975391978e-002	(-6.30907948655503e-001dB,-1.46819199314981e+002°)
6.91830970918932e-002	(-5.71963658647591e-001dB,-1.47420676571409e+002°)
7.07945784384133e-002	(-5.14915507512912e-001dB,-1.48016364530117e+002°)
7.24435960074985e-002	(-4.59726365962120e-001dB,-1.48606063919568e+002°)
7.41310241300913e-002	(-4.06358272251935e-001dB,-1.49189587668065e+002°)
7.58577575029179e-002	(-3.54772544620371e-001dB,-1.49766760961392e+002°)
7.76247116628687e-002	(-3.04929891765577e-001dB,-1.50337421250850e+002°)
7.94328234724276e-002	(-2.56790520839852e-001dB,-1.50901418214104e+002°)
8.12830516164094e-002	(-2.10314242481377e-001dB,-1.51458613671499e+002°)
8.31763771102666e-002	(-1.65460572458211e-001dB,-1.52008881460656e+002°)
8.51138038202371e-002	(-1.22188829552499e-001dB,-1.52552107272354e+002°)
8.70963589956075e-002	(-8.04582293654296e-002dB,-1.53088188450755e+002°)
8.91250938133740e-002	(-4.02279737759012e-002dB,-1.53617033761137e+002°)
9.12010839355904e-002	(-1.45733583667832e-003dB,-1.54138563128299e+002°)
9.33254300796985e-002	(3.58942600593114e-002dB,-1.54652707348807e+002°)
9.54992586021430e-002	(7.18671628630451e-002dB,-1.55159407780220e+002°)
9.77237220955804e-002	(1.06501424480553e-001dB,-1.55658616010370e+002°)
9.99999999999993e-002	(1.39836734346741e-001dB,-1.56150293509666e+002°)
1.02329299228075e-001	(1.71912358959778e-001dB,-1.56634411269306e+002°)
1.04712854805089e-001	(2.02767086339348e-001dB,-1.57110949428159e+002°)
1.07151930523760e-001	(2.32439175341212e-001dB,-1.57579896890906e+002°)
1.09647819614318e-001	(2.60966309732626e-001dB,-1.58041250939922e+002°)
1.12201845430196e-001	(2.88385556909230e-001dB,-1.58495016843193e+002°)
1.14815362149687e-001	(3.14733331112803e-001dB,-1.58941207460409e+002°)
1.17489755493952e-001	(3.40045360991933e-001dB,-1.59379842849210e+002°)
1.20226443461740e-001	(3.64356661332680e-001dB,-1.59810949873381e+002°)
1.23026877081237e-001	(3.87701508774788e-001dB,-1.60234561814640e+002°)
1.25892541179416e-001	(4.10113421319889e-001dB,-1.60650717989490e+002°)
1.28824955169312e-001	(4.31625141431574e-001dB,-1.61059463372446e+002°)
1.31825673855640e-001	(4.52268622523033e-001dB,-1.61460848226797e+002°)
1.34896288259164e-001	(4.72075018625697e-001dB,-1.61854927743907e+002°)
1.38038426460287e-001	(4.91074677032151e-001dB,-1.62241761691925e+002°)
1.41253754462274e-001	(5.09297133707714e-001dB,-1.62621414074645e+002°)
1.44543977074592e-001	(5.26771111268179e-001dB,-1.62993952801101e+002°)
1.47910838816820e-001	(5.43524519324938e-001dB,-1.63359449366420e+002°)
1.51356124843620e-001	(5.59584457004122e-001dB,-1.63717978544287e+002°)
1.54881661891247e-001	(5.74977217452135e-001dB,-1.64069618091314e+002°)
1.58489319246110e-001	(5.89728294146970e-001dB,-1.64414448463517e+002°)
1.62181009735892e-001	(6.03862388841762e-001dB,-1.64752552544983e+002°)
1.65958690743755e-001	(6.17403420975045e-001dB,-1.65084015388781e+002°)
1.69824365246173e-001	(6.30374538390084e-001dB,-1.65408923970081e+002°)
1.73780082874936e-001	(6.42798129214030e-001dB,-1.65727366951369e+002°)
1.77827941003891e-001	(6.54695834756102e-001dB,-1.66039434459641e+002°)
1.81970085860997e-001	(6.66088563292429e-001dB,-1.66345217875361e+002°)
1.86208713666285e-001	(6.76996504613486e-001dB,-1.66644809632957e+002°)
1.90546071796323e-001	(6.87439145218486e-001dB,-1.66938303032600e+002°)
1.94984459975803e-001	(6.97435284049144e-001dB,-1.67225792062966e+002°)
1.99526231496886e-001	(7.07003048663075e-001dB,-1.67507371234653e+002°)
2.04173794466951e-001	(7.16159911754892e-001dB,-1.67783135423940e+002°)
2.08929613085402e-001	(7.24922707940269e-001dB,-1.68053179726523e+002°)
2.13796208950222e-001	(7.33307650725499e-001dB,-1.68317599320867e+002°)
2.18776162394954e-001	(7.41330349591615e-001dB,-1.68576489340811e+002°)
2.23872113856832e-001	(7.49005827128815e-001dB,-1.68829944757049e+002°)
2.29086765276776e-001	(7.56348536162807e-001dB,-1.69078060267113e+002°)
2.34422881531990e-001	(7.63372376820498e-001dB,-1.69320930193480e+002°)
2.39883291901947e-001	(7.70090713488028e-001dB,-1.69558648389439e+002°)
2.45470891568501e-001	(7.76516391618861e-001dB,-1.69791308152333e+002°)
2.51188643150956e-001	(7.82661754354786e-001dB,-1.70019002143835e+002°)
2.57039578276884e-001	(7.88538658926786e-001dB,-1.70241822316884e+002°)
2.63026799189536e-001	(7.94158492807029e-001dB,-1.70459859848942e+002°)
2.69153480392689e-001	(7.99532189586921e-001dB,-1.70673205081235e+002°)
2.75422870333815e-001	(8.04670244559736e-001dB,-1.70881947463645e+002°)
2.81838293126443e-001	(8.09582729989582e-001dB,-1.71086175504937e+002°)
2.88403150312658e-001	(8.14279310051341e-001dB,-1.71285976728014e+002°)
2.95120922666636e-001	(8.18769255429061e-001dB,-1.71481437629903e+002°)
3.01995172040199e-001	(8.23061457562706e-001dB,-1.71672643646187e+002°)
3.09029543251357e-001	(8.27164442535340e-001dB,-1.71859679119611e+002°)
3.16227766016835e-001	(8.31086384595137e-001dB,-1.72042627272600e+002°)
3.23593656929626e-001	(8.34835119308037e-001dB,-1.72221570183433e+002°)
3.31131121482589e-001	(8.38418156339047e-001dB,-1.72396588765847e+002°)
3.38844156139200e-001	(8.41842691861215e-001dB,-1.72567762751826e+002°)
3.46736850452529e-001	(8.45115620592957e-001dB,-1.72735170677375e+002°)
3.54813389233573e-001	(8.48243547465504e-001dB,-1.72898889871058e+002°)
3.63078054770098e-001	(8.51232798923242e-001dB,-1.73058996445120e+002°)
3.71535229097170e-001	(8.54089433860739e-001dB,-1.73215565288989e+002°)
3.80189396320558e-001	(8.56819254201015e-001dB,-1.73368670064998e+002°)
3.89045144994277e-001	(8.59427815120310e-001dB,-1.73518383206160e+002°)
3.98107170553494e-001	(8.61920434925348e-001dB,-1.73664775915825e+002°)
4.07380277804109e-001	(8.64302204589276e-001dB,-1.73807918169088e+002°)
4.16869383470332e-001	(8.66577996953411e-001dB,-1.73947878715802e+002°)
4.26579518801589e-001	(8.68752475601765e-001dB,-1.74084725085060e+002°)
4.36515832240162e-001	(8.70830103416047e-001dB,-1.74218523591031e+002°)
4.46683592150959e-001	(8.72815150818798e-001dB,-1.74349339340028e+002°)
4.57088189614871e-001	(8.74711703712609e-001dB,-1.74477236238704e+002°)
4.67735141287194e-001	(8.76523671123536e-001dB,-1.74602277003270e+002°)
4.78630092322634e-001	(8.78254792556858e-001dB,-1.74724523169638e+002°)
4.89778819368442e-001	(8.79908645073394e-001dB,-1.74844035104410e+002°)
5.01187233627268e-001	(8.81488650094632e-001dB,-1.74960872016613e+002°)
5.12861383991360e-001	(8.82998079944864e-001dB,-1.75075091970115e+002°)
5.24807460249768e-001	(8.84440064138543e-001dB,-1.75186751896647e+002°)
5.37031796370248e-001	(8.85817595420932e-001dB,-1.75295907609354e+002°)
