Freq.	V(vin)
1.00000000000000e-003	(-3.04576187692480e+001dB,-1.92835942360776e-012°)
1.02329299228075e-003	(-3.04576187692480e+001dB,-1.97327668476273e-012°)
1.04712854805090e-003	(-3.04576187692480e+001dB,-2.01924020347300e-012°)
1.07151930523761e-003	(-3.04576187692480e+001dB,-2.06627434977457e-012°)
1.09647819614318e-003	(-3.04576187692480e+001dB,-2.11440406205149e-012°)
1.12201845430196e-003	(-3.04576187692480e+001dB,-2.16365485942340e-012°)
1.14815362149688e-003	(-3.04576187692480e+001dB,-2.21405285564746e-012°)
1.17489755493953e-003	(-3.04576187692480e+001dB,-2.26562477141183e-012°)
1.20226443461741e-003	(-3.04576187692480e+001dB,-2.31839795192566e-012°)
1.23026877081238e-003	(-3.04576187692480e+001dB,-2.37240037708554e-012°)
1.25892541179417e-003	(-3.04576187692480e+001dB,-2.42766068077495e-012°)
1.28824955169313e-003	(-3.04576187692480e+001dB,-2.48420816226314e-012°)
1.31825673855641e-003	(-3.04576187692480e+001dB,-2.54207280372637e-012°)
1.34896288259165e-003	(-3.04576187692480e+001dB,-2.60128528575444e-012°)
1.38038426460288e-003	(-3.04576187692480e+001dB,-2.66187700392020e-012°)
1.41253754462275e-003	(-3.04576187692480e+001dB,-2.72388008409856e-012°)
1.44543977074593e-003	(-3.04576187692480e+001dB,-2.78732740187725e-012°)
1.47910838816821e-003	(-3.04576187692480e+001dB,-2.85225259754563e-012°)
1.51356124843621e-003	(-3.04576187692480e+001dB,-2.91869009507733e-012°)
1.54881661891248e-003	(-3.04576187692480e+001dB,-2.98667512074476e-012°)
1.58489319246111e-003	(-3.04576187692480e+001dB,-3.05624372120889e-012°)
1.62181009735893e-003	(-3.04576187692480e+001dB,-3.12743278238364e-012°)
1.65958690743756e-003	(-3.04576187692480e+001dB,-3.20028004983533e-012°)
1.69824365246174e-003	(-3.04576187692480e+001dB,-3.27482414824246e-012°)
1.73780082874937e-003	(-3.04576187692480e+001dB,-3.35110460164698e-012°)
1.77827941003892e-003	(-3.04576187692480e+001dB,-3.42916185504218e-012°)
1.81970085860998e-003	(-3.04576187692480e+001dB,-3.50903729568549e-012°)
1.86208713666287e-003	(-3.04576187692480e+001dB,-3.59077327381912e-012°)
1.90546071796324e-003	(-3.04576187692480e+001dB,-3.67441312776490e-012°)
1.94984459975804e-003	(-3.04576187692480e+001dB,-3.76000120412629e-012°)
1.99526231496888e-003	(-3.04576187692480e+001dB,-3.84758288280913e-012°)
2.04173794466953e-003	(-3.04576187692480e+001dB,-3.93720460093686e-012°)
2.08929613085404e-003	(-3.04576187692480e+001dB,-4.02891387685356e-012°)
2.13796208950223e-003	(-3.04576187692480e+001dB,-4.12275933627053e-012°)
2.18776162394955e-003	(-3.04576187692480e+001dB,-4.21879073732859e-012°)
2.23872113856834e-003	(-3.04576187692480e+001dB,-4.31705899695604e-012°)
2.29086765276777e-003	(-3.04576187692480e+001dB,-4.41761621852964e-012°)
2.34422881531992e-003	(-3.04576187692480e+001dB,-4.52051571858200e-012°)
2.39883291901949e-003	(-3.04576187692480e+001dB,-4.62581205515116e-012°)
2.45470891568503e-003	(-3.04576187692480e+001dB,-4.73356105950594e-012°)
2.51188643150958e-003	(-3.04576187692480e+001dB,-4.84381986014853e-012°)
2.57039578276886e-003	(-3.04576187692480e+001dB,-4.95664691829699e-012°)
2.63026799189538e-003	(-3.04576187692480e+001dB,-5.07210205566211e-012°)
2.69153480392691e-003	(-3.04576187692480e+001dB,-5.19024648919294e-012°)
2.75422870333816e-003	(-3.04576187692480e+001dB,-5.31114285975216e-012°)
2.81838293126445e-003	(-3.04576187692480e+001dB,-5.43485526842532e-012°)
2.88403150312660e-003	(-3.04576187692480e+001dB,-5.56144930915129e-012°)
2.95120922666638e-003	(-3.04576187692480e+001dB,-5.69099210436900e-012°)
3.01995172040201e-003	(-3.04576187692480e+001dB,-5.82355233862242e-012°)
3.09029543251358e-003	(-3.04576187692480e+001dB,-5.95920029660420e-012°)
3.16227766016837e-003	(-3.04576187692480e+001dB,-6.09800790230505e-012°)
3.23593656929628e-003	(-3.04576187692480e+001dB,-6.24004875151611e-012°)
3.31131121482590e-003	(-3.04576187692480e+001dB,-6.38539815796753e-012°)
3.38844156139202e-003	(-3.04576187692480e+001dB,-6.53413318680342e-012°)
3.46736850452531e-003	(-3.04576187692480e+001dB,-6.68633269869626e-012°)
3.54813389233575e-003	(-3.04576187692480e+001dB,-6.84207739318237e-012°)
3.63078054770101e-003	(-3.04576187692480e+001dB,-7.00144984756434e-012°)
3.71535229097172e-003	(-3.04576187692480e+001dB,-7.16453456260666e-012°)
3.80189396320560e-003	(-3.04576187692480e+001dB,-7.33141800878357e-012°)
3.89045144994280e-003	(-3.04576187692480e+001dB,-7.50218866942499e-012°)
3.98107170553496e-003	(-3.04576187692480e+001dB,-7.67693709026338e-012°)
4.07380277804112e-003	(-3.04576187692480e+001dB,-7.85575592439608e-012°)
4.16869383470334e-003	(-3.04576187692480e+001dB,-8.03873998302827e-012°)
4.26579518801592e-003	(-3.04576187692480e+001dB,-8.22598628834495e-012°)
4.36515832240165e-003	(-3.04576187692480e+001dB,-8.41759412162492e-012°)
4.46683592150962e-003	(-3.04576187692480e+001dB,-8.61366507178694e-012°)
4.57088189614874e-003	(-3.04576187692480e+001dB,-8.81430310250009e-012°)
4.67735141287197e-003	(-3.04576187692480e+001dB,-9.01961459258258e-012°)
4.78630092322637e-003	(-3.04576187692480e+001dB,-9.22970840254465e-012°)
4.89778819368445e-003	(-3.04576187692480e+001dB,-9.44469592415626e-012°)
5.01187233627271e-003	(-3.04576187692480e+001dB,-9.66469114864427e-012°)
5.12861383991363e-003	(-3.04576187692480e+001dB,-9.88981072053496e-012°)
5.24807460249771e-003	(-3.04576187692480e+001dB,-1.01201739985137e-011°)
5.37031796370251e-003	(-3.04576187692480e+001dB,-1.03559031282784e-011°)
5.49540873857623e-003	(-3.04576187692480e+001dB,-1.05971230933293e-011°)
5.62341325190347e-003	(-3.04576187692480e+001dB,-1.08439617928855e-011°)
5.75439937337155e-003	(-3.04576187692480e+001dB,-1.10965501042469e-011°)
5.88843655355587e-003	(-3.04576187692480e+001dB,-1.13550219522635e-011°)
6.02559586074356e-003	(-3.04576187692480e+001dB,-1.16195143835604e-011°)
6.16595001861480e-003	(-3.04576187692480e+001dB,-1.18901676334645e-011°)
6.30957344480191e-003	(-3.04576187692480e+001dB,-1.21671252067826e-011°)
6.45654229034654e-003	(-3.04576187692480e+001dB,-1.24505339500300e-011°)
6.60693448007594e-003	(-3.04576187692480e+001dB,-1.27405441310848e-011°)
6.76082975391980e-003	(-3.04576187692480e+001dB,-1.30373095146480e-011°)
6.91830970918934e-003	(-3.04576187692480e+001dB,-1.33409874525099e-011°)
7.07945784384136e-003	(-3.04576187692480e+001dB,-1.36517389567252e-011°)
7.24435960074988e-003	(-3.04576187692480e+001dB,-1.39697287928186e-011°)
7.41310241300915e-003	(-3.04576187692480e+001dB,-1.42951255624202e-011°)
7.58577575029181e-003	(-3.04576187692480e+001dB,-1.46281017956245e-011°)
7.76247116628689e-003	(-3.04576187692480e+001dB,-1.49688340384377e-011°)
7.94328234724279e-003	(-3.04576187692480e+001dB,-1.53175029577675e-011°)
8.12830516164097e-003	(-3.04576187692480e+001dB,-1.56742934139456e-011°)
8.31763771102668e-003	(-3.04576187692480e+001dB,-1.60393945888054e-011°)
8.51138038202373e-003	(-3.04576187692480e+001dB,-1.64130000597805e-011°)
8.70963589956078e-003	(-3.04576187692480e+001dB,-1.67953079188308e-011°)
8.91250938133742e-003	(-3.04576187692480e+001dB,-1.71865208689383e-011°)
9.12010839355906e-003	(-3.04576187692480e+001dB,-1.75868463387410e-011°)
9.33254300796988e-003	(-3.04576187692480e+001dB,-1.79964965834295e-011°)
9.54992586021432e-003	(-3.04576187692480e+001dB,-1.84156888081540e-011°)
9.77237220955807e-003	(-3.04576187692480e+001dB,-1.88446452686985e-011°)
9.99999999999996e-003	(-3.04576187692480e+001dB,-1.92835934085380e-011°)
1.02329299228075e-002	(-3.04576187692480e+001dB,-1.97327659589879e-011°)
1.04712854805090e-002	(-3.04576187692480e+001dB,-2.01924010814167e-011°)
1.07151930523760e-002	(-3.04576187692480e+001dB,-2.06627424782246e-011°)
1.09647819614318e-002	(-3.04576187692480e+001dB,-2.11440395295717e-011°)
1.12201845430196e-002	(-3.04576187692480e+001dB,-2.16365474265397e-011°)
1.14815362149688e-002	(-3.04576187692480e+001dB,-2.21405273007953e-011°)
1.17489755493952e-002	(-3.04576187692480e+001dB,-2.26562463736251e-011°)
1.20226443461741e-002	(-3.04576187692480e+001dB,-2.31839780799718e-011°)
1.23026877081238e-002	(-3.04576187692480e+001dB,-2.37240022296161e-011°)
1.25892541179416e-002	(-3.04576187692480e+001dB,-2.42766051572442e-011°)
1.28824955169313e-002	(-3.04576187692480e+001dB,-2.48420798536624e-011°)
1.31825673855640e-002	(-3.04576187692480e+001dB,-2.54207261386165e-011°)
1.34896288259165e-002	(-3.04576187692480e+001dB,-2.60128508260447e-011°)
1.38038426460288e-002	(-3.04576187692480e+001dB,-2.66187678611596e-011°)
1.41253754462275e-002	(-3.04576187692480e+001dB,-2.72387985113159e-011°)
1.44543977074592e-002	(-3.04576187692480e+001dB,-2.78732715175447e-011°)
1.47910838816820e-002	(-3.04576187692480e+001dB,-2.85225232965607e-011°)
1.51356124843620e-002	(-3.04576187692480e+001dB,-2.91868980741857e-011°)
1.54881661891247e-002	(-3.04576187692480e+001dB,-2.98667481271290e-011°)
1.58489319246111e-002	(-3.04576187692480e+001dB,-3.05624339166357e-011°)
1.62181009735892e-002	(-3.04576187692480e+001dB,-3.12743242917425e-011°)
1.65958690743755e-002	(-3.04576187692480e+001dB,-3.20027967113362e-011°)
1.69824365246174e-002	(-3.04576187692480e+001dB,-3.27482374255124e-011°)
1.73780082874937e-002	(-3.04576187692480e+001dB,-3.35110416706437e-011°)
1.77827941003891e-002	(-3.04576187692480e+001dB,-3.42916138929186e-011°)
1.81970085860997e-002	(-3.04576187692480e+001dB,-3.50903679658265e-011°)
1.86208713666286e-002	(-3.04576187692480e+001dB,-3.59077273905189e-011°)
1.90546071796324e-002	(-3.04576187692480e+001dB,-3.67441255497924e-011°)
1.94984459975804e-002	(-3.04576187692480e+001dB,-3.76000059018671e-011°)
1.99526231496887e-002	(-3.04576187692480e+001dB,-3.84758222487056e-011°)
2.04173794466952e-002	(-3.04576187692480e+001dB,-3.93720389579996e-011°)
2.08929613085403e-002	(-3.04576187692480e+001dB,-4.02891312166970e-011°)
2.13796208950222e-002	(-3.04576187692480e+001dB,-4.12275852702962e-011°)
2.18776162394954e-002	(-3.04576187692480e+001dB,-4.21878987023837e-011°)
2.23872113856833e-002	(-3.04576187692480e+001dB,-4.31705806716535e-011°)
2.29086765276776e-002	(-3.04576187692480e+001dB,-4.41761522255220e-011°)
2.34422881531991e-002	(-3.04576187692480e+001dB,-4.52051465144786e-011°)
2.39883291901948e-002	(-3.04576187692480e+001dB,-4.62581091253934e-011°)
2.45470891568502e-002	(-3.04576187692480e+001dB,-4.73355983458982e-011°)
2.51188643150957e-002	(-3.04576187692480e+001dB,-4.84381854789534e-011°)
2.57039578276885e-002	(-3.04576187692480e+001dB,-4.95664551179439e-011°)
2.63026799189537e-002	(-3.04576187692480e+001dB,-5.07210054927411e-011°)
2.69153480392690e-002	(-3.04576187692480e+001dB,-5.19024487437630e-011°)
2.75422870333815e-002	(-3.04576187692480e+001dB,-5.31114112948105e-011°)
2.81838293126444e-002	(-3.04576187692480e+001dB,-5.43485341487885e-011°)
2.88403150312659e-002	(-3.04576187692480e+001dB,-5.56144732289748e-011°)
2.95120922666637e-002	(-3.04576187692480e+001dB,-5.69098997606320e-011°)
3.01995172040200e-002	(-3.04576187692480e+001dB,-5.82355005759138e-011°)
3.09029543251357e-002	(-3.04576187692480e+001dB,-5.95919785299726e-011°)
3.16227766016836e-002	(-3.04576187692480e+001dB,-6.09800528388074e-011°)
3.23593656929626e-002	(-3.04576187692480e+001dB,-6.24004594595951e-011°)
3.31131121482589e-002	(-3.04576187692480e+001dB,-6.38539515136464e-011°)
3.38844156139201e-002	(-3.04576187692480e+001dB,-6.53412996520490e-011°)
3.46736850452530e-002	(-3.04576187692480e+001dB,-6.68632924640455e-011°)
3.54813389233573e-002	(-3.04576187692480e+001dB,-6.84207369456194e-011°)
3.63078054770099e-002	(-3.04576187692480e+001dB,-7.00144588300634e-011°)
3.71535229097170e-002	(-3.04576187692480e+001dB,-7.16453031565326e-011°)
3.80189396320559e-002	(-3.04576187692480e+001dB,-7.33141345867908e-011°)
3.89045144994278e-002	(-3.04576187692480e+001dB,-7.50218379328371e-011°)
3.98107170553495e-002	(-3.04576187692480e+001dB,-7.67693186519270e-011°)
4.07380277804110e-002	(-3.04576187692480e+001dB,-7.85575032507520e-011°)
4.16869383470333e-002	(-3.04576187692480e+001dB,-8.03873398351055e-011°)
4.26579518801590e-002	(-3.04576187692480e+001dB,-8.22597986013272e-011°)
4.36515832240163e-002	(-3.04576187692480e+001dB,-8.41758723257011e-011°)
4.46683592150960e-002	(-3.04576187692480e+001dB,-8.61365769144957e-011°)
4.57088189614872e-002	(-3.04576187692480e+001dB,-8.81429519418386e-011°)
4.67735141287195e-002	(-3.04576187692480e+001dB,-9.01960611936380e-011°)
4.78630092322635e-002	(-3.04576187692480e+001dB,-9.22969932146009e-011°)
4.89778819368443e-002	(-3.04576187692480e+001dB,-9.44468619483999e-011°)
5.01187233627269e-002	(-3.04576187692480e+001dB,-9.66468072254107e-011°)
5.12861383991362e-002	(-3.04576187692480e+001dB,-9.88979954924161e-011°)
5.24807460249769e-002	(-3.04576187692480e+001dB,-1.01201620290292e-010°)
5.37031796370249e-002	(-3.04576187692480e+001dB,-1.03558903025727e-010°)
5.49540873857621e-002	(-3.04576187692480e+001dB,-1.05971093504122e-010°)
5.62341325190346e-002	(-3.04576187692480e+001dB,-1.08439470678517e-010°)
5.75439937337153e-002	(-3.04576187692480e+001dB,-1.10965343252843e-010°)
5.88843655355585e-002	(-3.04576187692480e+001dB,-1.13550050438763e-010°)
6.02559586074354e-002	(-3.04576187692480e+001dB,-1.16194962661782e-010°)
6.16595001861478e-002	(-3.04576187692480e+001dB,-1.18901482201538e-010°)
6.30957344480189e-002	(-3.04576187692480e+001dB,-1.21671044041977e-010°)
6.45654229034651e-002	(-3.04576187692480e+001dB,-1.24505116594477e-010°)
6.60693448007592e-002	(-3.04576187692480e+001dB,-1.27405202471240e-010°)
6.76082975391978e-002	(-3.04576187692480e+001dB,-1.30372839231695e-010°)
6.91830970918932e-002	(-3.04576187692480e+001dB,-1.33409600317886e-010°)
7.07945784384133e-002	(-3.04576187692480e+001dB,-1.36517095751176e-010°)
7.24435960074985e-002	(-3.04576187692480e+001dB,-1.39696973086671e-010°)
7.41310241300913e-002	(-3.04576187692480e+001dB,-1.42950918256865e-010°)
7.58577575029179e-002	(-3.04576187692480e+001dB,-1.46280656468250e-010°)
7.76247116628687e-002	(-3.04576187692480e+001dB,-1.49687953057101e-010°)
7.94328234724276e-002	(-3.04576187692480e+001dB,-1.53174614525091e-010°)
8.12830516164094e-002	(-3.04576187692480e+001dB,-1.56742489420109e-010°)
8.31763771102666e-002	(-3.04576187692480e+001dB,-1.60393469360293e-010°)
8.51138038202371e-002	(-3.04576187692480e+001dB,-1.64129489978158e-010°)
8.70963589956075e-002	(-3.04576187692480e+001dB,-1.67952532049936e-010°)
8.91250938133740e-002	(-3.04576187692480e+001dB,-1.71864622428369e-010°)
9.12010839355904e-002	(-3.04576187692480e+001dB,-1.75867835188992e-010°)
9.33254300796985e-002	(-3.04576187692480e+001dB,-1.79964292734073e-010°)
9.54992586021430e-002	(-3.04576187692480e+001dB,-1.84156166814705e-010°)
9.77237220955804e-002	(-3.04576187692480e+001dB,-1.88445679839709e-010°)
9.99999999999993e-002	(-3.04576187692480e+001dB,-1.92835105979382e-010°)
1.02329299228075e-001	(-3.04576187692480e+001dB,-1.97326772260400e-010°)
1.04712854805089e-001	(-3.04576187692480e+001dB,-2.01923060023114e-010°)
1.07151930523760e-001	(-3.04576187692480e+001dB,-2.06626405981736e-010°)
1.09647819614318e-001	(-3.04576187692480e+001dB,-2.11439303619014e-010°)
1.12201845430196e-001	(-3.04576187692480e+001dB,-2.16364304518309e-010°)
1.14815362149687e-001	(-3.04576187692480e+001dB,-2.21404019617750e-010°)
1.17489755493952e-001	(-3.04576187692480e+001dB,-2.26561120694943e-010°)
1.20226443461740e-001	(-3.04576187692480e+001dB,-2.31838341699932e-010°)
1.23026877081237e-001	(-3.04576187692480e+001dB,-2.37238480297527e-010°)
1.25892541179416e-001	(-3.04576187692480e+001dB,-2.42764399273458e-010°)
1.28824955169312e-001	(-3.04576187692480e+001dB,-2.48419028072464e-010°)
1.31825673855640e-001	(-3.04576187692480e+001dB,-2.54205364295663e-010°)
1.34896288259164e-001	(-3.04576187692480e+001dB,-2.60126475520751e-010°)
1.38038426460287e-001	(-3.04576187692480e+001dB,-2.66185500447284e-010°)
1.41253754462274e-001	(-3.04576187692481e+001dB,-2.72385651168342e-010°)
1.44543977074592e-001	(-3.04576187692481e+001dB,-2.78730214344276e-010°)
1.47910838816820e-001	(-3.04576187692481e+001dB,-2.85222553244137e-010°)
1.51356124843620e-001	(-3.04576187692481e+001dB,-2.91866109414603e-010°)
1.54881661891247e-001	(-3.04576187692481e+001dB,-2.98664404633599e-010°)
1.58489319246110e-001	(-3.04576187692481e+001dB,-3.05621042394488e-010°)
1.62181009735892e-001	(-3.04576187692481e+001dB,-3.12739710407302e-010°)
1.65958690743755e-001	(-3.04576187692481e+001dB,-3.20024181973303e-010°)
1.69824365246173e-001	(-3.04576187692481e+001dB,-3.27478318399797e-010°)
1.73780082874936e-001	(-3.04576187692481e+001dB,-3.35106070783146e-010°)
1.77827941003891e-001	(-3.04576187692481e+001dB,-3.42911482244793e-010°)
1.81970085860997e-001	(-3.04576187692481e+001dB,-3.50898689862399e-010°)
1.86208713666285e-001	(-3.04576187692481e+001dB,-3.59071927291382e-010°)
1.90546071796323e-001	(-3.04576187692481e+001dB,-3.67435526449708e-010°)
1.94984459975803e-001	(-3.04576187692481e+001dB,-3.75993920264196e-010°)
1.99526231496886e-001	(-3.04576187692481e+001dB,-3.84751644730874e-010°)
2.04173794466951e-001	(-3.04576187692481e+001dB,-3.93713341430002e-010°)
2.08929613085402e-001	(-3.04576187692481e+001dB,-4.02883759911726e-010°)
2.13796208950222e-001	(-3.04576187692482e+001dB,-4.12267760344368e-010°)
2.18776162394954e-001	(-3.04576187692482e+001dB,-4.21870315912991e-010°)
2.23872113856832e-001	(-3.04576187692482e+001dB,-4.31696515533674e-010°)
2.29086765276776e-001	(-3.04576187692482e+001dB,-4.41751566579721e-010°)
2.34422881531990e-001	(-3.04576187692482e+001dB,-4.52040797463538e-010°)
2.39883291901947e-001	(-3.04576187692482e+001dB,-4.62569660639329e-010°)
2.45470891568501e-001	(-3.04576187692482e+001dB,-4.73343735415855e-010°)
2.51188643150956e-001	(-3.04576187692482e+001dB,-4.84368730739710e-010°)
2.57039578276884e-001	(-3.04576187692482e+001dB,-4.95650488549974e-010°)
2.63026799189536e-001	(-3.04576187692482e+001dB,-5.07194986555477e-010°)
2.69153480392689e-001	(-3.04576187692483e+001dB,-5.19008341489328e-010°)
2.75422870333815e-001	(-3.04576187692483e+001dB,-5.31096812365098e-010°)
2.81838293126443e-001	(-3.04576187692483e+001dB,-5.43466803553111e-010°)
2.88403150312658e-001	(-3.04576187692483e+001dB,-5.56124868634173e-010°)
2.95120922666636e-001	(-3.04576187692483e+001dB,-5.69077713380121e-010°)
3.01995172040199e-001	(-3.04576187692483e+001dB,-5.82332199455521e-010°)
3.09029543251357e-001	(-3.04576187692484e+001dB,-5.95895347952516e-010°)
3.16227766016835e-001	(-3.04576187692484e+001dB,-6.09774343443315e-010°)
3.23593656929626e-001	(-3.04576187692484e+001dB,-6.23976537064631e-010°)
3.31131121482589e-001	(-3.04576187692484e+001dB,-6.38509451103379e-010°)
3.38844156139200e-001	(-3.04576187692484e+001dB,-6.53380782428972e-010°)
3.46736850452529e-001	(-3.04576187692485e+001dB,-6.68598406921156e-010°)
3.54813389233573e-001	(-3.04576187692485e+001dB,-6.84170383182808e-010°)
3.63078054770098e-001	(-3.04576187692485e+001dB,-7.00104957137706e-010°)
3.71535229097170e-001	(-3.04576187692485e+001dB,-7.16410566152705e-010°)
3.80189396320558e-001	(-3.04576187692486e+001dB,-7.33095843597863e-010°)
3.89045144994277e-001	(-3.04576187692486e+001dB,-7.50169623132068e-010°)
3.98107170553494e-001	(-3.04576187692486e+001dB,-7.67640943710494e-010°)
4.07380277804109e-001	(-3.04576187692486e+001dB,-7.85519053822094e-010°)
4.16869383470332e-001	(-3.04576187692487e+001dB,-8.03813416597548e-010°)
4.26579518801589e-001	(-3.04576187692487e+001dB,-8.22533714952068e-010°)
4.36515832240162e-001	(-3.04576187692487e+001dB,-8.41689856100721e-010°)
4.46683592150959e-001	(-3.04576187692488e+001dB,-8.61291977330946e-010°)
4.57088189614871e-001	(-3.04576187692488e+001dB,-8.81350450789019e-010°)
4.67735141287194e-001	(-3.04576187692489e+001dB,-9.01875889266051e-010°)
4.78630092322634e-001	(-3.04576187692489e+001dB,-9.22879151058707e-010°)
4.89778819368442e-001	(-3.04576187692489e+001dB,-9.44371346904272e-010°)
5.01187233627268e-001	(-3.04576187692490e+001dB,-9.66363843894316e-010°)
5.12861383991360e-001	(-3.04576187692490e+001dB,-9.88868273429802e-010°)
5.24807460249768e-001	(-3.04576187692491e+001dB,-1.01189653566251e-009°)
